Circuit: * C:\Users\Facu\Documents\DCE\simulaciones\500ma\modelo_1_1\modelo_1_1.asc

Warning: Multiple definitions of model "2scr375p" Type: BJT
Warning: Multiple definitions of model "bc857b" Type: BJT
Warning: Multiple definitions of model "bc847c" Type: BJT
Warning: Multiple definitions of model "bc847b" Type: BJT
WARNING: Less than two connections to node nc_01.  This node is used by r14.
WARNING: Less than two connections to node nc_02.  This node is used by r16.
WARNING: Less than two connections to node nc_04.  This node is used by r21.
WARNING: Less than two connections to node nc_05.  This node is used by r24.
WARNING: Less than two connections to node nc_06.  This node is used by r6.
Direct Newton iteration failed to find .op point.  (Use ".option noopiter" to skip.)
Starting Gmin stepping
Gmin = 10
Gmin = 1.07374
Gmin = 0.115292
Gmin = 0.0123794
Gmin = 0.00132923
Gmin = 0.000142725
Gmin = 1.5325e-05
vernier = 0.5
vernier = 0.666667
Gmin = 5.73799e-06
vernier = 0.888888
vernier = 1
Gmin = 8.09366e-07
Gmin = 8.6905e-08
Gmin = 9.33136e-09
Gmin = 1.00195e-09
Gmin = 1.07583e-10
Gmin = 1.15517e-11
Gmin = 1.24035e-12
Gmin = 1.33182e-13
Gmin = 0
Gmin stepping succeeded in finding the operating point.

Semiconductor Device Operating Points:
                        --- Bipolar Transistors ---
Name:       q1          q2          q3          q4          q10
Model:    2n2222      2n2222      2n2222      2n2222      2n2222
Ib:       2.14e-05    2.14e-05   -1.20e-12    2.02e-05   -2.10e-13
Ic:       4.22e-03    4.23e-03    6.90e-13    4.20e-03    0.00e+00
Vbe:      6.94e-01    6.94e-01   -5.08e-01    6.92e-01   -2.03e-01
Vbc:      1.86e-01    0.00e+00   -6.86e-01   -5.15e+00   -6.91e-03
Vce:      5.08e-01    6.94e-01    1.79e-01    5.84e+00   -1.96e-01
BetaDC:   1.97e+02    1.97e+02   -5.76e-01    2.08e+02   -0.00e+00
Gm:       1.61e-01    1.61e-01    1.16e-21    1.60e-01   -2.96e-13
Rpi:      1.21e+03    1.21e+03    1.00e+12    1.28e+03    1.00e+12
Rx:       1.00e+01    1.00e+01    1.00e+01    1.00e+01    1.00e+01
Ro:       2.37e+04    2.37e+04    6.84e+23    2.50e+04    3.38e+12
Cbe:      1.05e-10    1.05e-10    2.11e-11    1.04e-10    2.31e-11
Cbc:      8.80e-12    8.00e-12    6.46e-12    4.05e-12    7.98e-12
Cjs:      0.00e+00    0.00e+00    0.00e+00    0.00e+00    0.00e+00
BetaAC:   1.94e+02    1.94e+02    1.16e-09    2.05e+02   -2.96e-01
Cbx:      0.00e+00    0.00e+00    0.00e+00    0.00e+00    0.00e+00
Ft:       2.26e+08    2.28e+08    5.78e-03    2.35e+08    4.89e-03

Name:       q13         q5          q7          q8          q9
Model:    2n2222      2n2222      bc557b      bc557b      2sa2210
Ib:       3.36e-06    1.32e-05   -6.59e-06   -6.66e-06   -7.04e-04
Ic:       7.04e-04    2.62e-03   -2.63e-03   -2.14e-03   -4.13e-01
Vbe:      6.45e-01    6.81e-01   -6.48e-01   -6.48e-01   -6.14e-01
Vbc:     -5.05e+00    2.08e-02    5.02e+00    0.00e+00    5.69e+00
Vce:      5.69e+00    6.60e-01   -5.66e+00   -6.48e-01   -6.31e+00
BetaDC:   2.10e+02    1.98e+02    3.99e+02    3.21e+02    5.87e+02
Gm:       2.71e-02    1.01e-01    9.80e-02    7.97e-02    1.59e+01
Rpi:      7.71e+03    1.95e+03    3.99e+03    3.94e+03    3.68e+01
Rx:       1.00e+01    1.00e+01    1.00e+00    1.00e+00    5.98e-01
Ro:       1.49e+05    3.81e+04    9.78e+03    9.67e+03    1.76e+01
Cbe:      4.97e-11    8.01e-11    8.89e-11    7.87e-11    2.10e-08
Cbc:      4.07e-12    8.08e-12    1.68e-12    6.82e-12    2.88e-10
Cjs:      0.00e+00    0.00e+00    0.00e+00    0.00e+00    0.00e+00
BetaAC:   2.09e+02    1.96e+02    3.91e+02    3.14e+02    5.84e+02
Cbx:      0.00e+00    0.00e+00    9.94e-13    4.03e-12    0.00e+00
Ft:       8.03e+07    1.81e+08    1.70e+08    1.42e+08    1.18e+08

                        --- VDMOSFET Transistors ---
Name:          m2
Model:        bs170
Id:          2.76e-09
Vgs:         5.77e+00
Vds:         1.39e-08
Vth:         1.82e+00
Gm:          6.93e-10
Gds:         4.87e-01
Cgs:         2.80e-11
Cgd:         2.00e-11
Cbody:       3.50e-11



Date: Fri Sep 15 21:11:10 2023
Total elapsed time: 25.459 seconds.

tnom = 27
temp = 27
method = trap
totiter = 34
traniter = 0
tranpoints = 0
accept = 0
rejected = 0
matrix size = 85
fillins = 59
solver = Normal
Avg thread counts: 8.0/0.0/8.0/8.0
Matrix Compiler1: 8.62 KB object code size
Matrix Compiler2:     661 opcodes
