Circuit: * C:\Users\Facu\Documents\DCE\simulaciones\500ma\modelo_1_1\modelo_1_1.asc

Warning: Multiple definitions of model "2scr375p" Type: BJT
Warning: Multiple definitions of model "bc857b" Type: BJT
Warning: Multiple definitions of model "bc847c" Type: BJT
Warning: Multiple definitions of model "bc847b" Type: BJT
i2: both pins shorted together -- ignoring.
Direct Newton iteration failed to find .op point.  (Use ".option noopiter" to skip.)
Starting Gmin stepping
Gmin = 10
Gmin = 1.07374
Gmin = 0.115292
Gmin = 0.0123794
Gmin = 0.00132923
Gmin = 0.000142725
Gmin = 1.5325e-05
Gmin = 1.6455e-06
Gmin = 1.76685e-07
Gmin = 1.89714e-08
Gmin = 2.03704e-09
Gmin = 2.18725e-10
Gmin = 2.34854e-11
Gmin = 2.52173e-12
Gmin = 2.70769e-13
Gmin = 0
Gmin stepping succeeded in finding the operating point.

Semiconductor Device Operating Points:
                        --- Bipolar Transistors ---
Name:       q1          q2          q3          q4          q10
Model:    2n2222      2n2222      2n2222      2n2222      2n2222
Ib:       2.01e-05    2.01e-05   -1.15e-12    1.90e-05    1.23e-05
Ic:       3.96e-03    3.97e-03    6.38e-13    3.94e-03    2.44e-03
Vbe:      6.92e-01    6.92e-01   -5.09e-01    6.91e-01    6.79e-01
Vbc:      1.83e-01    0.00e+00   -6.35e-01   -4.80e+00    6.85e-02
Vce:      5.09e-01    6.92e-01    1.26e-01    5.49e+00    6.11e-01
BetaDC:   1.97e+02    1.97e+02   -5.56e-01    2.07e+02    1.98e+02
Gm:       1.51e-01    1.51e-01    1.08e-21    1.50e-01    9.36e-02
Rpi:      1.29e+03    1.29e+03    1.00e+12    1.36e+03    2.10e+03
Rx:       1.00e+01    1.00e+01    1.00e+01    1.00e+01    1.00e+01
Ro:       2.52e+04    2.52e+04    1.14e+23    2.66e+04    4.10e+04
Cbe:      1.01e-10    1.01e-10    2.11e-11    1.00e-10    7.73e-11
Cbc:      8.78e-12    8.00e-12    6.53e-12    4.13e-12    8.26e-12
Cjs:      0.00e+00    0.00e+00    0.00e+00    0.00e+00    0.00e+00
BetaAC:   1.94e+02    1.95e+02    1.08e-09    2.04e+02    1.97e+02
Cbx:      0.00e+00    0.00e+00    0.00e+00    0.00e+00    0.00e+00
Ft:       2.20e+08    2.22e+08    5.77e-03    2.29e+08    1.74e+08

Name:       q5          q6          q7          q8          q9
Model:    bc547b      bc547b      bc557b      bc557b      2sa2210
Ib:       1.25e-06   -6.06e-12   -6.19e-06   -6.25e-06   -3.80e-04
Ic:       3.80e-04    6.09e-12   -2.44e-03   -2.01e-03   -2.14e-01
Vbe:      6.11e-01    2.14e-03   -6.46e-01   -6.46e-01   -5.94e-01
Vbc:     -4.77e+00   -6.00e+00    4.72e+00    0.00e+00    5.38e+00
Vce:      5.38e+00    6.00e+00   -5.37e+00   -6.46e-01   -5.98e+00
BetaDC:   3.05e+02   -1.01e+00    3.95e+02    3.21e+02    5.62e+02
Gm:       1.45e-02    1.09e-12    9.12e-02    7.50e-02    8.22e+00
Rpi:      2.10e+04    9.11e+11    4.25e+03    4.21e+03    6.82e+01
Rx:       1.00e+00    1.00e+00    1.00e+00    1.00e+00    5.99e-01
Ro:       1.75e+05    2.44e+15    1.04e+04    1.03e+04    3.26e+01
Cbe:      4.06e-11    1.36e-11    8.49e-11    7.59e-11    1.36e-08
Cbc:      1.08e-12    1.02e-12    1.72e-12    6.82e-12    2.94e-10
Cjs:      0.00e+00    0.00e+00    0.00e+00    0.00e+00    0.00e+00
BetaAC:   3.05e+02    9.92e-01    3.88e+02    3.15e+02    5.60e+02
Cbx:      6.66e-13    6.25e-13    1.02e-12    4.03e-12    0.00e+00
Ft:       5.46e+07    1.49e-03    1.66e+08    1.38e+08    9.45e+07

                        --- VDMOSFET Transistors ---
Name:          m2
Model:     bsc100n03ls
Id:          2.98e-09
Vgs:         5.45e+00
Vds:         2.54e-11
Vth:         2.77e+00
Gm:          1.02e-09
Gds:         2.98e+02
Cgs:         9.80e-10
Cgd:         2.40e-10
Cbody:       1.19e-09



Date: Thu Sep 14 22:47:06 2023
Total elapsed time: 10.830 seconds.

tnom = 27
temp = 27
method = trap
totiter = 17
traniter = 0
tranpoints = 0
accept = 0
rejected = 0
matrix size = 65
fillins = 59
solver = Normal
Avg thread counts: 8.0/0.0/8.0/8.0
Matrix Compiler1: 7.69 KB object code size
Matrix Compiler2: 6.92 KB object code size
